===================================================================================================
QUANTA Computer Inc. CPLD RELEASE NOTES for F0N(CI-Catalina)
===================================================================================================
Project Name            : F0N
CPLD Vender             : Lattice
CPLD Device             : LCMXO3LF-4300C-5BG256C
HDL FW Version          : 0x00021100
Build Date              : 2025/04/29
Checksum                : 0x
===================================================================================================
                             IMPORTANT INSTALLATION NOTES
===================================================================================================
I. WARNING:
  1. N/A

II. CPLD FW Upgrade:
  1. Using Dongle: HW-USBN-2A
  2. Using oBMC online update: fw-util cpld --update mb_cpld [file]
===================================================================================================
                             KNOWN ISSUES/WORKAROUNDS
===================================================================================================
0x00000001:

- Initial release for EVT stage.

===================================================================================================
                             FEATURES ADDED/MODIFY
===================================================================================================
0x00021100:

-   Modify function for BMC logging leak event occured before BMC booted up by delay the by 5 mins to make sure BMC is ready.
-   Leak configuration setting function modification, BMC will send three cmds to complete the configuration setup, CPLD catch the third cmd and threat as the configuration setting for each AC power up.
-   Solution for Isue [CAT-501][GB200][PVT] No Throttle Asserts, PWRBRK pulse too short(1ms) for BMC to logged, CPLD extend the 1ms to 5ms so the BMC can have the enough time to log for both assert/deasser event. 800us debounce mechanism also implement to prevent unstable signal throttling.

0x00021000:

-   modify the module "State_Leak_Logger" to avoid false triggering leak event during AC cycle.


0x00020800:

-   Leak event delay time change from 0s to 5s.
-   Add leak signal debounce mechanism with 1s.

0x00020700:

-   Add sticky leak event disable function.

0x00020600:

-  Set delay time of small/tray leak signal to RMC to 0.

0x00020300:

-   Modfiy fucntion of leakage signal delay 30 mins to RMC

0x00020200:

-   Disable UFM error logging function
-   leakage signal delay 30 mins to RMC

0x00020000:

-   Modify leakage dc off delay 30mins function
-   Modify Interupt of IO Expander

0x00010200:

-  Change IO Expander Module P1 default as output
-  Leak Config setting function modify, command as:
    i2cset -f -y 14 0x14 0x03 0xf1(Leading POR)
    i2cset -f -y 14 0x14 0x03 0xf2(Initial Bring up)
    i2cset -f -y 14 0x14 0x03 0xf4(Capacity Driven)
    i2cset -f -y 14 0x14 0x03 0xf8(Safety Driven)
-  Register Mapping Table update
-  Leakage dc off delay 30mins function enable

0x00010100:

-  Add RMC enable monitor configuration, command as below:
    i2cset -y -f 14 0x14 0x06 0xfe(Change IO Expander to output port)
    i2cset -y -f 14 0x14 0x02 0x??(0xff, RMC enable monitor by sequence; 0xfe, sequence not monitoring RMC enable)

0x00010000:

-  5 IO Expander remain, address as 0x10~0x14.
-  Modify leak event platform configuration mechnism, command as:
    i2cset -f -y 14 0x14 0x07 0xf0(Change IO Expander to output port)
    i2cset -f -y 14 0x14 0x03 0xf0(Leading POR)
    i2cset -f -y 14 0x14 0x03 0xf1(Initial Bring up)
    i2cset -f -y 14 0x14 0x03 0xf2(Capacity Driven)
    i2cset -f -y 14 0x14 0x03 0xf3(Safety Driven)
-  Change REGs module address to 0x1e.
-  Add UFM module, address as 0x1f, function not ready still in discussion with customer.
-  Add Error Injection to disable SMBus for 5 seconds, command as: 
    i2cset -y -f 14 0x14 0x07 0x7f(Change IO Expander to output port)
    i2cset -y -f 14 0x14 0x03 0x7f(Error Injection)
-  Add Small/Large Leak event Error Injection, command as:
    Small Leak:
    i2cset -y -f 14 0x14 0x07 0xdf(Change IO Expander to output port)
    i2cset -y -f 14 0x14 0x03 0xdf(Error Injection)
    Large Leak:
    i2cset -y -f 14 0x14 0x07 0xbf(Change IO Expander to output port)
    i2cset -y -f 14 0x14 0x03 0xbf(Error Injection)

0x00000100:

- Add IO Expander interupt mechanism.
- Add Plaform Config to Master Sequence.

0x00000001:

- Initial release for EVT stage.

===================================================================================================
                             ISSUES FIXED
===================================================================================================
0x00000001:

- Initial release for EVT stage.